T0BA0 000:007.908   SEGGER J-Link V7.22b Log File
T0BA0 000:008.074   DLL Compiled: Jun 17 2021 17:22:49
T0BA0 000:008.082   Logging started @ 2022-04-02 07:22
T0BA0 000:008.088 - 8.092ms
T0BA0 000:008.101 JLINK_SetWarnOutHandler(...)
T0BA0 000:008.109 - 0.012ms
T0BA0 000:008.118 JLINK_OpenEx(...)
T0BA0 000:009.752   Firmware: J-Link V9 compiled May  7 2021 16:26:12
T0BA0 000:010.100   Firmware: J-Link V9 compiled May  7 2021 16:26:12
T0BA0 000:010.275   Decompressing FW timestamp took 146 us
T0BA0 000:016.335   Hardware: V9.60
T0BA0 000:016.436   S/N: 69662154
T0BA0 000:016.460   OEM: SEGGER
T0BA0 000:016.477   Feature(s): RDI, GDB, FlashDL, FlashBP, JFlash
T0BA0 000:017.618   TELNET listener socket opened on port 19021
T0BA0 000:017.884   WEBSRV Starting webserver
T0BA0 000:018.100   WEBSRV Webserver running on local port 19080
T0BA0 000:018.123 - 10.010ms returns "O.K."
T0BA0 000:018.152 JLINK_GetEmuCaps()
T0BA0 000:018.180 - 0.033ms returns 0xB9FF7BBF
T0BA0 000:018.200 JLINK_TIF_GetAvailable(...)
T0BA0 000:018.368 - 0.178ms
T0BA0 000:018.389 JLINK_SetErrorOutHandler(...)
T0BA0 000:018.407 - 0.023ms
T0BA0 000:018.442 JLINK_ExecCommand("ProjectFile = "D:\A-Develop\STM32-Soft\7-HT_Probe_0_2\JLinkSettings.ini"", ...). 
T0BA0 000:043.259   Device "STM32G474VE" selected.
T0BA0 000:043.726 - 25.292ms returns 0x00
T0BA0 000:047.188 JLINK_ExecCommand("Device = STM32G474VETx", ...). 
T0BA0 000:051.302   Device "STM32G474VE" selected.
T0BA0 000:051.706 - 4.499ms returns 0x00
T0BA0 000:051.734 JLINK_GetHardwareVersion()
T0BA0 000:051.742 - 0.011ms returns 96000
T0BA0 000:051.751 JLINK_GetDLLVersion()
T0BA0 000:051.758 - 0.010ms returns 72202
T0BA0 000:051.767 JLINK_GetOEMString(...)
T0BA0 000:051.777 JLINK_GetFirmwareString(...)
T0BA0 000:051.792 - 0.019ms
T0BA0 000:061.068 JLINK_GetDLLVersion()
T0BA0 000:061.090 - 0.025ms returns 72202
T0BA0 000:061.100 JLINK_GetCompileDateTime()
T0BA0 000:061.107 - 0.010ms
T0BA0 000:064.425 JLINK_GetFirmwareString(...)
T0BA0 000:064.449 - 0.027ms
T0BA0 000:067.644 JLINK_GetHardwareVersion()
T0BA0 000:067.668 - 0.028ms returns 96000
T0BA0 000:070.736 JLINK_GetSN()
T0BA0 000:070.760 - 0.027ms returns 69662154
T0BA0 000:073.393 JLINK_GetOEMString(...)
T0BA0 000:080.464 JLINK_TIF_Select(JLINKARM_TIF_SWD)
T0BA0 000:081.095 - 0.641ms returns 0x00
T0BA0 000:081.115 JLINK_HasError()
T0BA0 000:081.134 JLINK_SetSpeed(5000)
T0BA0 000:081.219 - 0.092ms
T0BA0 000:081.234 JLINK_GetId()
T0BA0 000:085.145   Found SW-DP with ID 0x2BA01477
T0BA0 000:110.096   Found SW-DP with ID 0x2BA01477
T0BA0 000:114.644   DPIDR: 0x2BA01477
T0BA0 000:119.171   Scanning AP map to find all available APs
T0BA0 000:122.441   AP[1]: Stopped AP scan as end of AP map has been reached
T0BA0 000:124.861   AP[0]: AHB-AP (IDR: 0x24770011)
T0BA0 000:127.801   Iterating through AP map to find AHB-AP to use
T0BA0 000:131.590   AP[0]: Core found
T0BA0 000:134.484   AP[0]: AHB-AP ROM base: 0xE00FF000
T0BA0 000:138.069   CPUID register: 0x410FC241. Implementer code: 0x41 (ARM)
T0BA0 000:142.484   Found Cortex-M4 r0p1, Little endian.
T0BA0 000:244.125   -- Max. mem block: 0x00010C40
T0BA0 000:244.372   CPU_ReadMem(4 bytes @ 0xE000EDF0)
T0BA0 000:244.784   CPU_ReadMem(4 bytes @ 0xE0002000)
T0BA0 000:249.816   FPUnit: 6 code (BP) slots and 2 literal slots
T0BA0 000:249.860   CPU_ReadMem(4 bytes @ 0xE000EDFC)
T0BA0 000:250.276   CPU_ReadMem(4 bytes @ 0xE0001000)
T0BA0 000:250.663   CPU_WriteMem(4 bytes @ 0xE0001000)
T0BA0 000:251.070   CPU_ReadMem(4 bytes @ 0xE000ED88)
T0BA0 000:251.475   CPU_WriteMem(4 bytes @ 0xE000ED88)
T0BA0 000:251.860   CPU_ReadMem(4 bytes @ 0xE000ED88)
T0BA0 000:252.178   CPU_WriteMem(4 bytes @ 0xE000ED88)
T0BA0 000:256.650   CoreSight components:
T0BA0 000:259.139   ROMTbl[0] @ E00FF000
T0BA0 000:259.163   CPU_ReadMem(64 bytes @ 0xE00FF000)
T0BA0 000:259.739   CPU_ReadMem(32 bytes @ 0xE000EFE0)
T0BA0 000:262.802   ROMTbl[0][0]: E000E000, CID: B105E00D, PID: 000BB00C SCS-M7
T0BA0 000:262.832   CPU_ReadMem(32 bytes @ 0xE0001FE0)
T0BA0 000:265.819   ROMTbl[0][1]: E0001000, CID: B105E00D, PID: 003BB002 DWT
T0BA0 000:265.919   CPU_ReadMem(32 bytes @ 0xE0002FE0)
T0BA0 000:270.152   ROMTbl[0][2]: E0002000, CID: B105E00D, PID: 002BB003 FPB
T0BA0 000:270.180   CPU_ReadMem(32 bytes @ 0xE0000FE0)
T0BA0 000:274.056   ROMTbl[0][3]: E0000000, CID: B105E00D, PID: 003BB001 ITM
T0BA0 000:274.088   CPU_ReadMem(32 bytes @ 0xE0040FE0)
T0BA0 000:277.678   ROMTbl[0][4]: E0040000, CID: B105900D, PID: 000BB9A1 TPIU
T0BA0 000:277.710   CPU_ReadMem(32 bytes @ 0xE0041FE0)
T0BA0 000:281.262   ROMTbl[0][5]: E0041000, CID: B105900D, PID: 000BB925 ETM
T0BA0 000:281.601 - 200.377ms returns 0x2BA01477
T0BA0 000:281.626 JLINK_GetDLLVersion()
T0BA0 000:281.633 - 0.010ms returns 72202
T0BA0 000:281.642 JLINK_CORE_GetFound()
T0BA0 000:281.649 - 0.010ms returns 0xE0000FF
T0BA0 000:281.738 JLINK_GetDebugInfo(0x100 = JLINKARM_ROM_TABLE_ADDR_INDEX)
T0BA0 000:281.752   Value=0xE00FF000
T0BA0 000:281.762 - 0.027ms returns 0
T0BA0 000:285.218 JLINK_GetDebugInfo(0x100 = JLINKARM_ROM_TABLE_ADDR_INDEX)
T0BA0 000:285.251   Value=0xE00FF000
T0BA0 000:285.263 - 0.048ms returns 0
T0BA0 000:285.273 JLINK_GetDebugInfo(0x101 = JLINKARM_DEBUG_INFO_ETM_ADDR_INDEX)
T0BA0 000:285.281   Value=0xE0041000
T0BA0 000:285.292 - 0.022ms returns 0
T0BA0 000:285.309 JLINK_ReadMemEx(0xE0041FD0, 0x20 Bytes, Flags = 0x02000004)
T0BA0 000:285.337   CPU_ReadMem(32 bytes @ 0xE0041FD0)
T0BA0 000:285.804   Data:  04 00 00 00 00 00 00 00 00 00 00 00 00 00 00 00 ...
T0BA0 000:285.821 - 0.516ms returns 32 (0x20)
T0BA0 000:285.835 JLINK_GetDebugInfo(0x102 = JLINKARM_DEBUG_INFO_MTB_ADDR_INDEX)
T0BA0 000:285.843   Value=0x00000000
T0BA0 000:285.854 - 0.023ms returns 0
T0BA0 000:285.863 JLINK_GetDebugInfo(0x103 = JLINKARM_DEBUG_INFO_TPIU_ADDR_INDEX)
T0BA0 000:285.871   Value=0xE0040000
T0BA0 000:285.882 - 0.021ms returns 0
T0BA0 000:285.891 JLINK_GetDebugInfo(0x104 = JLINKARM_DEBUG_INFO_ITM_ADDR_INDEX)
T0BA0 000:285.899   Value=0xE0000000
T0BA0 000:285.909 - 0.021ms returns 0
T0BA0 000:285.919 JLINK_GetDebugInfo(0x105 = JLINKARM_DEBUG_INFO_DWT_ADDR_INDEX)
T0BA0 000:285.931   Value=0xE0001000
T0BA0 000:285.951 - 0.039ms returns 0
T0BA0 000:285.965 JLINK_GetDebugInfo(0x106 = JLINKARM_DEBUG_INFO_FPB_ADDR_INDEX)
T0BA0 000:285.973   Value=0xE0002000
T0BA0 000:285.984 - 0.022ms returns 0
T0BA0 000:285.993 JLINK_GetDebugInfo(0x107 = JLINKARM_DEBUG_INFO_NVIC_ADDR_INDEX)
T0BA0 000:286.001   Value=0xE000E000
T0BA0 000:286.011 - 0.021ms returns 0
T0BA0 000:286.021 JLINK_GetDebugInfo(0x10C = JLINKARM_DEBUG_INFO_DBG_ADDR_INDEX)
T0BA0 000:286.028   Value=0xE000EDF0
T0BA0 000:286.039 - 0.021ms returns 0
T0BA0 000:286.048 JLINK_GetDebugInfo(0x01 = Unknown)
T0BA0 000:286.056   Value=0x00000001
T0BA0 000:286.067 - 0.022ms returns 0
T0BA0 000:286.076 JLINK_ReadMemU32(0xE000ED00, 0x1 Items)
T0BA0 000:286.091   CPU_ReadMem(4 bytes @ 0xE000ED00)
T0BA0 000:286.456   Data:  41 C2 0F 41
T0BA0 000:286.477   Debug reg: CPUID
T0BA0 000:286.488 - 0.415ms returns 1 (0x1)
T0BA0 000:286.501 JLINK_GetDebugInfo(0x10F = JLINKARM_DEBUG_INFO_HAS_CORTEX_M_SECURITY_EXT_INDEX)
T0BA0 000:286.509   Value=0x00000000
T0BA0 000:286.519 - 0.022ms returns 0
T0BA0 000:286.529 JLINK_HasError()
T0BA0 000:286.539 JLINK_SetResetType(JLINKARM_CM3_RESET_TYPE_NORMAL)
T0BA0 000:286.551 - 0.016ms returns JLINKARM_CM3_RESET_TYPE_NORMAL
T0BA0 000:286.561 JLINK_Reset()
T0BA0 000:286.581   CPU is running
T0BA0 000:286.595   CPU_WriteMem(4 bytes @ 0xE000EDF0)
T0BA0 000:286.965   CPU is running
T0BA0 000:286.982   CPU_WriteMem(4 bytes @ 0xE000EDFC)
T0BA0 000:290.283   Reset: Halt core after reset via DEMCR.VC_CORERESET.
T0BA0 000:293.399   Reset: Reset device via AIRCR.SYSRESETREQ.
T0BA0 000:293.428   CPU is running
T0BA0 000:293.443   CPU_WriteMem(4 bytes @ 0xE000ED0C)
T0BA0 000:346.509   CPU_ReadMem(4 bytes @ 0xE000EDF0)
T0BA0 000:346.809   CPU_ReadMem(4 bytes @ 0xE000EDF0)
T0BA0 000:347.209   CPU is running
T0BA0 000:347.233   CPU_WriteMem(4 bytes @ 0xE000EDF0)
T0BA0 000:347.561   CPU is running
T0BA0 000:347.577   CPU_WriteMem(4 bytes @ 0xE000EDFC)
T0BA0 000:353.052   CPU_ReadMem(4 bytes @ 0xE000EDF0)
T0BA0 000:355.327   CPU_WriteMem(4 bytes @ 0xE0002000)
T0BA0 000:355.599   CPU_ReadMem(4 bytes @ 0xE000EDFC)
T0BA0 000:355.902   CPU_ReadMem(4 bytes @ 0xE0001000)
T0BA0 000:356.225 - 69.673ms
T0BA0 000:356.254 JLINK_Halt()
T0BA0 000:356.268 - 0.021ms returns 0x00
T0BA0 000:356.288 JLINK_ReadMemU32(0xE000EDF0, 0x1 Items)
T0BA0 000:356.311   CPU_ReadMem(4 bytes @ 0xE000EDF0)
T0BA0 000:356.646   Data:  03 00 03 00
T0BA0 000:356.662   Debug reg: DHCSR
T0BA0 000:356.671 - 0.386ms returns 1 (0x1)
T0BA0 000:356.687 JLINK_WriteU32_64(0xE000EDF0, 0xA05F0003)
T0BA0 000:356.709   Debug reg: DHCSR
T0BA0 000:357.056   CPU_WriteMem(4 bytes @ 0xE000EDF0)
T0BA0 000:357.484 - 0.805ms returns 0 (0x00000000)
T0BA0 000:357.506 JLINK_WriteU32_64(0xE000EDFC, 0x01000000)
T0BA0 000:357.525   Debug reg: DEMCR
T0BA0 000:357.546   CPU_WriteMem(4 bytes @ 0xE000EDFC)
T0BA0 000:357.831 - 0.336ms returns 0 (0x00000000)
T0BA0 000:384.741 JLINK_GetHWStatus(...)
T0BA0 000:384.939 - 0.209ms returns 0
T0BA0 000:396.581 JLINK_GetNumBPUnits(Type = 0xFFFFFF00)
T0BA0 000:396.620 - 0.045ms returns 0x06
T0BA0 000:396.637 JLINK_GetNumBPUnits(Type = 0xF0)
T0BA0 000:396.649 - 0.017ms returns 0x2000
T0BA0 000:396.662 JLINK_GetNumWPUnits()
T0BA0 000:396.672 - 0.015ms returns 4
T0BA0 000:407.154 JLINK_GetSpeed()
T0BA0 000:407.178 - 0.040ms returns 4000
T0BA0 000:418.066 JLINK_ReadMemU32(0xE000E004, 0x1 Items)
T0BA0 000:418.120   CPU_ReadMem(4 bytes @ 0xE000E004)
T0BA0 000:418.494   Data:  03 00 00 00
T0BA0 000:418.511 - 0.449ms returns 1 (0x1)
T0BA0 000:418.526 JLINK_ReadMemU32(0xE000E004, 0x1 Items)
T0BA0 000:418.542   CPU_ReadMem(4 bytes @ 0xE000E004)
T0BA0 000:418.818   Data:  03 00 00 00
T0BA0 000:418.846 - 0.326ms returns 1 (0x1)
T0BA0 000:418.865 JLINK_WriteMemEx(0xE0001000, 0x0000001C Bytes, Flags = 0x02000004)
T0BA0 000:418.881   Data:  01 00 00 00 00 00 00 00 00 00 00 00 00 00 00 00 ...
T0BA0 000:418.923   CPU_WriteMem(28 bytes @ 0xE0001000)
T0BA0 000:419.356 - 0.501ms returns 0x1C
T0BA0 000:419.381 JLINK_Halt()
T0BA0 000:419.391 - 0.013ms returns 0x00
T0BA0 000:419.402 JLINK_IsHalted()
T0BA0 000:419.411 - 0.013ms returns TRUE
T0BA0 000:424.580 JLINK_WriteMem(0x20000000, 0x260 Bytes, ...)
T0BA0 000:424.612   Data:  00 BE 0A E0 0D 78 2D 06 68 40 08 24 40 00 00 D3 ...
T0BA0 000:424.962   CPU_WriteMem(608 bytes @ 0x20000000)
T0BA0 000:427.568 - 3.020ms returns 0x260
T0BA0 000:427.668 JLINK_HasError()
T0BA0 000:427.689 JLINK_WriteReg(R0, 0x08000000)
T0BA0 000:427.702 - 0.017ms returns 0
T0BA0 000:427.712 JLINK_WriteReg(R1, 0x00B71B00)
T0BA0 000:427.719 - 0.010ms returns 0
T0BA0 000:427.728 JLINK_WriteReg(R2, 0x00000001)
T0BA0 000:427.735 - 0.010ms returns 0
T0BA0 000:427.744 JLINK_WriteReg(R3, 0x00000000)
T0BA0 000:427.751 - 0.010ms returns 0
T0BA0 000:427.759 JLINK_WriteReg(R4, 0x00000000)
T0BA0 000:427.766 - 0.010ms returns 0
T0BA0 000:427.775 JLINK_WriteReg(R5, 0x00000000)
T0BA0 000:427.782 - 0.010ms returns 0
T0BA0 000:427.790 JLINK_WriteReg(R6, 0x00000000)
T0BA0 000:427.797 - 0.010ms returns 0
T0BA0 000:427.806 JLINK_WriteReg(R7, 0x00000000)
T0BA0 000:427.813 - 0.010ms returns 0
T0BA0 000:427.822 JLINK_WriteReg(R8, 0x00000000)
T0BA0 000:427.840 - 0.022ms returns 0
T0BA0 000:427.849 JLINK_WriteReg(R9, 0x2000024C)
T0BA0 000:427.856 - 0.010ms returns 0
T0BA0 000:427.865 JLINK_WriteReg(R10, 0x00000000)
T0BA0 000:427.872 - 0.010ms returns 0
T0BA0 000:427.880 JLINK_WriteReg(R11, 0x00000000)
T0BA0 000:427.887 - 0.010ms returns 0
T0BA0 000:427.896 JLINK_WriteReg(R12, 0x00000000)
T0BA0 000:427.903 - 0.010ms returns 0
T0BA0 000:427.911 JLINK_WriteReg(R13 (SP), 0x20001000)
T0BA0 000:427.919 - 0.011ms returns 0
T0BA0 000:427.927 JLINK_WriteReg(R14, 0x20000001)
T0BA0 000:427.934 - 0.010ms returns 0
T0BA0 000:427.943 JLINK_WriteReg(R15 (PC), 0x20000020)
T0BA0 000:427.953 - 0.014ms returns 0
T0BA0 000:427.962 JLINK_WriteReg(XPSR, 0x01000000)
T0BA0 000:427.969 - 0.010ms returns 0
T0BA0 000:427.978 JLINK_WriteReg(MSP, 0x20001000)
T0BA0 000:427.989 - 0.017ms returns 0
T0BA0 000:428.001 JLINK_WriteReg(PSP, 0x20001000)
T0BA0 000:428.008 - 0.010ms returns 0
T0BA0 000:428.017 JLINK_WriteReg(CFBP, 0x00000000)
T0BA0 000:428.024 - 0.010ms returns 0
T0BA0 000:428.032 JLINK_SetBPEx(Addr = 0x20000000, Type = 0xFFFFFFF2)
T0BA0 000:428.046   CPU_ReadMem(2 bytes @ 0x20000000)
T0BA0 000:428.424 - 0.407ms returns 0x00000001
T0BA0 000:428.450 JLINK_Go()
T0BA0 000:428.464   CPU_WriteMem(2 bytes @ 0x20000000)
T0BA0 000:428.906   CPU_ReadMem(4 bytes @ 0xE0001000)
T0BA0 000:429.256   CPU_WriteMem(4 bytes @ 0xE0002008)
T0BA0 000:429.280   CPU_WriteMem(4 bytes @ 0xE000200C)
T0BA0 000:429.292   CPU_WriteMem(4 bytes @ 0xE0002010)
T0BA0 000:429.302   CPU_WriteMem(4 bytes @ 0xE0002014)
T0BA0 000:429.313   CPU_WriteMem(4 bytes @ 0xE0002018)
T0BA0 000:429.324   CPU_WriteMem(4 bytes @ 0xE000201C)
T0BA0 000:430.536   CPU_WriteMem(4 bytes @ 0xE0001004)
T0BA0 000:432.853 - 4.420ms
T0BA0 000:432.881 JLINK_IsHalted()
T0BA0 000:434.939   CPU_ReadMem(2 bytes @ 0x20000000)
T0BA0 000:435.240 - 2.366ms returns TRUE
T0BA0 000:435.256 JLINK_ReadReg(R15 (PC))
T0BA0 000:435.266 - 0.013ms returns 0x20000000
T0BA0 000:435.275 JLINK_ClrBPEx(BPHandle = 0x00000001)
T0BA0 000:435.282 - 0.010ms returns 0x00
T0BA0 000:435.291 JLINK_ReadReg(R0)
T0BA0 000:435.298 - 0.010ms returns 0x00000000
T0BA0 000:435.691 JLINK_HasError()
T0BA0 000:435.714 JLINK_WriteReg(R0, 0x08000000)
T0BA0 000:435.729 - 0.018ms returns 0
T0BA0 000:435.738 JLINK_WriteReg(R1, 0x00B71B00)
T0BA0 000:435.744 - 0.010ms returns 0
T0BA0 000:435.752 JLINK_WriteReg(R2, 0x00000001)
T0BA0 000:435.759 - 0.009ms returns 0
T0BA0 000:435.767 JLINK_WriteReg(R3, 0x00000000)
T0BA0 000:435.773 - 0.009ms returns 0
T0BA0 000:435.781 JLINK_WriteReg(R4, 0x00000000)
T0BA0 000:435.788 - 0.009ms returns 0
T0BA0 000:435.796 JLINK_WriteReg(R5, 0x00000000)
T0BA0 000:435.802 - 0.009ms returns 0
T0BA0 000:435.810 JLINK_WriteReg(R6, 0x00000000)
T0BA0 000:435.817 - 0.009ms returns 0
T0BA0 000:435.825 JLINK_WriteReg(R7, 0x00000000)
T0BA0 000:435.831 - 0.009ms returns 0
T0BA0 000:435.839 JLINK_WriteReg(R8, 0x00000000)
T0BA0 000:435.846 - 0.009ms returns 0
T0BA0 000:435.854 JLINK_WriteReg(R9, 0x2000024C)
T0BA0 000:435.860 - 0.009ms returns 0
T0BA0 000:435.868 JLINK_WriteReg(R10, 0x00000000)
T0BA0 000:435.875 - 0.009ms returns 0
T0BA0 000:435.883 JLINK_WriteReg(R11, 0x00000000)
T0BA0 000:435.889 - 0.009ms returns 0
T0BA0 000:435.897 JLINK_WriteReg(R12, 0x00000000)
T0BA0 000:435.904 - 0.009ms returns 0
T0BA0 000:435.912 JLINK_WriteReg(R13 (SP), 0x20001000)
T0BA0 000:435.919 - 0.010ms returns 0
T0BA0 000:435.931 JLINK_WriteReg(R14, 0x20000001)
T0BA0 000:435.944 - 0.021ms returns 0
T0BA0 000:435.958 JLINK_WriteReg(R15 (PC), 0x200000B2)
T0BA0 000:435.967 - 0.011ms returns 0
T0BA0 000:435.975 JLINK_WriteReg(XPSR, 0x01000000)
T0BA0 000:435.981 - 0.009ms returns 0
T0BA0 000:435.989 JLINK_WriteReg(MSP, 0x20001000)
T0BA0 000:435.996 - 0.009ms returns 0
T0BA0 000:436.004 JLINK_WriteReg(PSP, 0x20001000)
T0BA0 000:436.010 - 0.009ms returns 0
T0BA0 000:436.018 JLINK_WriteReg(CFBP, 0x00000000)
T0BA0 000:436.025 - 0.009ms returns 0
T0BA0 000:436.033 JLINK_SetBPEx(Addr = 0x20000000, Type = 0xFFFFFFF2)
T0BA0 000:436.041 - 0.011ms returns 0x00000002
T0BA0 000:436.049 JLINK_Go()
T0BA0 000:436.064   CPU_ReadMem(4 bytes @ 0xE0001000)
T0BA0 000:438.241 - 2.202ms
T0BA0 000:438.260 JLINK_IsHalted()
T0BA0 000:438.512 - 0.259ms returns FALSE
T0BA0 000:438.527 JLINK_HasError()
T0BA0 000:464.618 JLINK_IsHalted()
T0BA0 000:466.966   CPU_ReadMem(2 bytes @ 0x20000000)
T0BA0 000:467.633 - 3.028ms returns TRUE
T0BA0 000:467.656 JLINK_ReadReg(R15 (PC))
T0BA0 000:467.668 - 0.015ms returns 0x20000000
T0BA0 000:467.678 JLINK_ClrBPEx(BPHandle = 0x00000002)
T0BA0 000:467.687 - 0.012ms returns 0x00
T0BA0 000:467.696 JLINK_ReadReg(R0)
T0BA0 000:467.702 - 0.010ms returns 0x00000000
T0BA0 000:523.711 JLINK_HasError()
T0BA0 000:523.782 JLINK_WriteReg(R0, 0x00000001)
T0BA0 000:523.817 - 0.046ms returns 0
T0BA0 000:523.858 JLINK_WriteReg(R1, 0x00B71B00)
T0BA0 000:523.892 - 0.045ms returns 0
T0BA0 000:523.921 JLINK_WriteReg(R2, 0x00000001)
T0BA0 000:523.944 - 0.034ms returns 0
T0BA0 000:523.972 JLINK_WriteReg(R3, 0x00000000)
T0BA0 000:523.995 - 0.033ms returns 0
T0BA0 000:524.023 JLINK_WriteReg(R4, 0x00000000)
T0BA0 000:524.046 - 0.034ms returns 0
T0BA0 000:524.074 JLINK_WriteReg(R5, 0x00000000)
T0BA0 000:524.096 - 0.033ms returns 0
T0BA0 000:524.124 JLINK_WriteReg(R6, 0x00000000)
T0BA0 000:524.147 - 0.033ms returns 0
T0BA0 000:524.175 JLINK_WriteReg(R7, 0x00000000)
T0BA0 000:524.198 - 0.033ms returns 0
T0BA0 000:524.226 JLINK_WriteReg(R8, 0x00000000)
T0BA0 000:524.249 - 0.034ms returns 0
T0BA0 000:524.293 JLINK_WriteReg(R9, 0x2000024C)
T0BA0 000:524.320 - 0.039ms returns 0
T0BA0 000:524.351 JLINK_WriteReg(R10, 0x00000000)
T0BA0 000:524.377 - 0.042ms returns 0
T0BA0 000:524.412 JLINK_WriteReg(R11, 0x00000000)
T0BA0 000:524.438 - 0.037ms returns 0
T0BA0 000:524.469 JLINK_WriteReg(R12, 0x00000000)
T0BA0 000:524.495 - 0.037ms returns 0
T0BA0 000:524.526 JLINK_WriteReg(R13 (SP), 0x20001000)
T0BA0 000:524.554 - 0.040ms returns 0
T0BA0 000:524.585 JLINK_WriteReg(R14, 0x20000001)
T0BA0 000:524.611 - 0.038ms returns 0
T0BA0 000:524.642 JLINK_WriteReg(R15 (PC), 0x2000009C)
T0BA0 000:524.669 - 0.038ms returns 0
T0BA0 000:524.699 JLINK_WriteReg(XPSR, 0x01000000)
T0BA0 000:524.725 - 0.038ms returns 0
T0BA0 000:524.756 JLINK_WriteReg(MSP, 0x20001000)
T0BA0 000:524.782 - 0.038ms returns 0
T0BA0 000:524.814 JLINK_WriteReg(PSP, 0x20001000)
T0BA0 000:524.839 - 0.037ms returns 0
T0BA0 000:524.870 JLINK_WriteReg(CFBP, 0x00000000)
T0BA0 000:524.896 - 0.037ms returns 0
T0BA0 000:524.927 JLINK_SetBPEx(Addr = 0x20000000, Type = 0xFFFFFFF2)
T0BA0 000:524.958 - 0.043ms returns 0x00000003
T0BA0 000:524.990 JLINK_Go()
T0BA0 000:525.046   CPU_ReadMem(4 bytes @ 0xE0001000)
T0BA0 000:527.706 - 2.746ms
T0BA0 000:527.762 JLINK_IsHalted()
T0BA0 000:529.989   CPU_ReadMem(2 bytes @ 0x20000000)
T0BA0 000:530.421 - 2.682ms returns TRUE
T0BA0 000:530.469 JLINK_ReadReg(R15 (PC))
T0BA0 000:530.499 - 0.041ms returns 0x20000000
T0BA0 000:530.529 JLINK_ClrBPEx(BPHandle = 0x00000003)
T0BA0 000:530.554 - 0.036ms returns 0x00
T0BA0 000:530.583 JLINK_ReadReg(R0)
T0BA0 000:530.607 - 0.035ms returns 0x00000000
T0BA0 000:544.939 JLINK_WriteMem(0x20000000, 0x260 Bytes, ...)
T0BA0 000:544.965   Data:  00 BE 0A E0 0D 78 2D 06 68 40 08 24 40 00 00 D3 ...
T0BA0 000:545.011   CPU_WriteMem(608 bytes @ 0x20000000)
T0BA0 000:547.426 - 2.505ms returns 0x260
T0BA0 000:547.501 JLINK_HasError()
T0BA0 000:547.519 JLINK_WriteReg(R0, 0x08000000)
T0BA0 000:547.535 - 0.021ms returns 0
T0BA0 000:547.548 JLINK_WriteReg(R1, 0x00B71B00)
T0BA0 000:547.559 - 0.016ms returns 0
T0BA0 000:547.572 JLINK_WriteReg(R2, 0x00000002)
T0BA0 000:547.583 - 0.015ms returns 0
T0BA0 000:547.595 JLINK_WriteReg(R3, 0x00000000)
T0BA0 000:547.606 - 0.015ms returns 0
T0BA0 000:547.619 JLINK_WriteReg(R4, 0x00000000)
T0BA0 000:547.629 - 0.015ms returns 0
T0BA0 000:547.642 JLINK_WriteReg(R5, 0x00000000)
T0BA0 000:547.652 - 0.015ms returns 0
T0BA0 000:547.665 JLINK_WriteReg(R6, 0x00000000)
T0BA0 000:547.675 - 0.015ms returns 0
T0BA0 000:547.688 JLINK_WriteReg(R7, 0x00000000)
T0BA0 000:547.698 - 0.015ms returns 0
T0BA0 000:547.711 JLINK_WriteReg(R8, 0x00000000)
T0BA0 000:547.721 - 0.015ms returns 0
T0BA0 000:547.734 JLINK_WriteReg(R9, 0x2000024C)
T0BA0 000:547.744 - 0.015ms returns 0
T0BA0 000:547.757 JLINK_WriteReg(R10, 0x00000000)
T0BA0 000:547.768 - 0.015ms returns 0
T0BA0 000:547.780 JLINK_WriteReg(R11, 0x00000000)
T0BA0 000:547.791 - 0.015ms returns 0
T0BA0 000:547.803 JLINK_WriteReg(R12, 0x00000000)
T0BA0 000:547.814 - 0.015ms returns 0
T0BA0 000:547.826 JLINK_WriteReg(R13 (SP), 0x20001000)
T0BA0 000:547.838 - 0.016ms returns 0
T0BA0 000:547.851 JLINK_WriteReg(R14, 0x20000001)
T0BA0 000:547.861 - 0.015ms returns 0
T0BA0 000:547.874 JLINK_WriteReg(R15 (PC), 0x20000020)
T0BA0 000:547.884 - 0.015ms returns 0
T0BA0 000:547.897 JLINK_WriteReg(XPSR, 0x01000000)
T0BA0 000:547.916 - 0.024ms returns 0
T0BA0 000:547.929 JLINK_WriteReg(MSP, 0x20001000)
T0BA0 000:547.940 - 0.015ms returns 0
T0BA0 000:547.952 JLINK_WriteReg(PSP, 0x20001000)
T0BA0 000:547.963 - 0.015ms returns 0
T0BA0 000:547.975 JLINK_WriteReg(CFBP, 0x00000000)
T0BA0 000:547.986 - 0.015ms returns 0
T0BA0 000:547.999 JLINK_SetBPEx(Addr = 0x20000000, Type = 0xFFFFFFF2)
T0BA0 000:548.017   CPU_ReadMem(2 bytes @ 0x20000000)
T0BA0 000:548.300 - 0.313ms returns 0x00000004
T0BA0 000:548.325 JLINK_Go()
T0BA0 000:548.341   CPU_WriteMem(2 bytes @ 0x20000000)
T0BA0 000:548.673   CPU_ReadMem(4 bytes @ 0xE0001000)
T0BA0 000:551.100 - 2.795ms
T0BA0 000:551.134 JLINK_IsHalted()
T0BA0 000:553.255   CPU_ReadMem(2 bytes @ 0x20000000)
T0BA0 000:553.628 - 2.509ms returns TRUE
T0BA0 000:553.657 JLINK_ReadReg(R15 (PC))
T0BA0 000:553.673 - 0.021ms returns 0x20000000
T0BA0 000:553.685 JLINK_ClrBPEx(BPHandle = 0x00000004)
T0BA0 000:553.696 - 0.015ms returns 0x00
T0BA0 000:553.707 JLINK_ReadReg(R0)
T0BA0 000:553.725 - 0.022ms returns 0x00000000
T0BA0 000:554.159 JLINK_WriteMem(0x20000260, 0x1A0 Bytes, ...)
T0BA0 000:554.181   Data:  C0 DC 00 20 49 03 00 08 C9 78 00 08 55 69 00 08 ...
T0BA0 000:554.210   CPU_WriteMem(416 bytes @ 0x20000260)
T0BA0 000:556.176 - 2.039ms returns 0x1A0
T0BA0 000:556.212 JLINK_WriteMem(0x20000400, 0x260 Bytes, ...)
T0BA0 000:556.222   Data:  63 03 00 08 63 03 00 08 63 03 00 08 63 03 00 08 ...
T0BA0 000:556.254   CPU_WriteMem(608 bytes @ 0x20000400)
T0BA0 000:558.617 - 2.424ms returns 0x260
T0BA0 000:558.648 JLINK_HasError()
T0BA0 000:558.659 JLINK_WriteReg(R0, 0x08000000)
T0BA0 000:558.679 - 0.023ms returns 0
T0BA0 000:558.689 JLINK_WriteReg(R1, 0x00000400)
T0BA0 000:558.697 - 0.012ms returns 0
T0BA0 000:558.707 JLINK_WriteReg(R2, 0x20000260)
T0BA0 000:558.714 - 0.011ms returns 0
T0BA0 000:558.724 JLINK_WriteReg(R3, 0x00000000)
T0BA0 000:558.731 - 0.011ms returns 0
T0BA0 000:558.741 JLINK_WriteReg(R4, 0x00000000)
T0BA0 000:558.749 - 0.011ms returns 0
T0BA0 000:558.758 JLINK_WriteReg(R5, 0x00000000)
T0BA0 000:558.765 - 0.011ms returns 0
T0BA0 000:558.775 JLINK_WriteReg(R6, 0x00000000)
T0BA0 000:558.782 - 0.011ms returns 0
T0BA0 000:558.792 JLINK_WriteReg(R7, 0x00000000)
T0BA0 000:558.799 - 0.011ms returns 0
T0BA0 000:558.809 JLINK_WriteReg(R8, 0x00000000)
T0BA0 000:558.816 - 0.011ms returns 0
T0BA0 000:558.825 JLINK_WriteReg(R9, 0x2000024C)
T0BA0 000:558.833 - 0.011ms returns 0
T0BA0 000:558.842 JLINK_WriteReg(R10, 0x00000000)
T0BA0 000:558.850 - 0.011ms returns 0
T0BA0 000:558.859 JLINK_WriteReg(R11, 0x00000000)
T0BA0 000:558.867 - 0.011ms returns 0
T0BA0 000:558.876 JLINK_WriteReg(R12, 0x00000000)
T0BA0 000:558.884 - 0.011ms returns 0
T0BA0 000:558.893 JLINK_WriteReg(R13 (SP), 0x20001000)
T0BA0 000:558.902 - 0.012ms returns 0
T0BA0 000:558.911 JLINK_WriteReg(R14, 0x20000001)
T0BA0 000:558.919 - 0.011ms returns 0
T0BA0 000:558.928 JLINK_WriteReg(R15 (PC), 0x20000150)
T0BA0 000:558.936 - 0.011ms returns 0
T0BA0 000:558.945 JLINK_WriteReg(XPSR, 0x01000000)
T0BA0 000:558.953 - 0.011ms returns 0
T0BA0 000:558.962 JLINK_WriteReg(MSP, 0x20001000)
T0BA0 000:558.970 - 0.011ms returns 0
T0BA0 000:558.979 JLINK_WriteReg(PSP, 0x20001000)
T0BA0 000:558.986 - 0.011ms returns 0
T0BA0 000:558.996 JLINK_WriteReg(CFBP, 0x00000000)
T0BA0 000:559.003 - 0.011ms returns 0
T0BA0 000:559.013 JLINK_SetBPEx(Addr = 0x20000000, Type = 0xFFFFFFF2)
T0BA0 000:559.022 - 0.013ms returns 0x00000005
T0BA0 000:559.032 JLINK_Go()
T0BA0 000:559.049   CPU_ReadMem(4 bytes @ 0xE0001000)
T0BA0 000:561.708 - 2.695ms
T0BA0 000:561.738 JLINK_IsHalted()
T0BA0 000:562.123 - 0.398ms returns FALSE
T0BA0 000:562.147 JLINK_HasError()
T0BA0 000:571.370 JLINK_IsHalted()
T0BA0 000:571.710 - 0.353ms returns FALSE
T0BA0 000:571.733 JLINK_HasError()
T0BA0 000:573.361 JLINK_IsHalted()
T0BA0 000:575.383   CPU_ReadMem(2 bytes @ 0x20000000)
T0BA0 000:575.818 - 2.475ms returns TRUE
T0BA0 000:575.847 JLINK_ReadReg(R15 (PC))
T0BA0 000:575.859 - 0.016ms returns 0x20000000
T0BA0 000:575.874 JLINK_ClrBPEx(BPHandle = 0x00000005)
T0BA0 000:575.888 - 0.018ms returns 0x00
T0BA0 000:575.898 JLINK_ReadReg(R0)
T0BA0 000:575.906 - 0.012ms returns 0x00000000
T0BA0 000:577.131 JLINK_WriteMem(0x20000260, 0x1A0 Bytes, ...)
T0BA0 000:577.155   Data:  46 EA 0C 06 20 37 B6 FB F4 FC A7 EB 05 07 10 3F ...
T0BA0 000:577.180   CPU_WriteMem(416 bytes @ 0x20000260)
T0BA0 000:578.951 - 1.829ms returns 0x1A0
T0BA0 000:578.969 JLINK_WriteMem(0x20000400, 0x260 Bytes, ...)
T0BA0 000:578.977   Data:  01 2B 48 BF 00 F8 01 2B 70 47 4F F0 00 02 00 B5 ...
T0BA0 000:578.993   CPU_WriteMem(608 bytes @ 0x20000400)
T0BA0 000:581.435 - 2.473ms returns 0x260
T0BA0 000:581.451 JLINK_HasError()
T0BA0 000:581.461 JLINK_WriteReg(R0, 0x08000400)
T0BA0 000:581.471 - 0.013ms returns 0
T0BA0 000:581.480 JLINK_WriteReg(R1, 0x00000400)
T0BA0 000:581.487 - 0.010ms returns 0
T0BA0 000:581.495 JLINK_WriteReg(R2, 0x20000260)
T0BA0 000:581.502 - 0.010ms returns 0
T0BA0 000:581.510 JLINK_WriteReg(R3, 0x00000000)
T0BA0 000:581.517 - 0.010ms returns 0
T0BA0 000:581.525 JLINK_WriteReg(R4, 0x00000000)
T0BA0 000:581.532 - 0.010ms returns 0
T0BA0 000:581.540 JLINK_WriteReg(R5, 0x00000000)
T0BA0 000:581.547 - 0.010ms returns 0
T0BA0 000:581.555 JLINK_WriteReg(R6, 0x00000000)
T0BA0 000:581.562 - 0.010ms returns 0
T0BA0 000:581.570 JLINK_WriteReg(R7, 0x00000000)
T0BA0 000:581.577 - 0.010ms returns 0
T0BA0 000:581.585 JLINK_WriteReg(R8, 0x00000000)
T0BA0 000:581.592 - 0.010ms returns 0
T0BA0 000:581.600 JLINK_WriteReg(R9, 0x2000024C)
T0BA0 000:581.607 - 0.010ms returns 0
T0BA0 000:581.615 JLINK_WriteReg(R10, 0x00000000)
T0BA0 000:581.622 - 0.010ms returns 0
T0BA0 000:581.630 JLINK_WriteReg(R11, 0x00000000)
T0BA0 000:581.637 - 0.010ms returns 0
T0BA0 000:581.645 JLINK_WriteReg(R12, 0x00000000)
T0BA0 000:581.652 - 0.010ms returns 0
T0BA0 000:581.660 JLINK_WriteReg(R13 (SP), 0x20001000)
T0BA0 000:581.667 - 0.010ms returns 0
T0BA0 000:581.676 JLINK_WriteReg(R14, 0x20000001)
T0BA0 000:581.682 - 0.010ms returns 0
T0BA0 000:581.691 JLINK_WriteReg(R15 (PC), 0x20000150)
T0BA0 000:581.698 - 0.010ms returns 0
T0BA0 000:581.706 JLINK_WriteReg(XPSR, 0x01000000)
T0BA0 000:581.712 - 0.010ms returns 0
T0BA0 000:581.720 JLINK_WriteReg(MSP, 0x20001000)
T0BA0 000:581.727 - 0.010ms returns 0
T0BA0 000:581.735 JLINK_WriteReg(PSP, 0x20001000)
T0BA0 000:581.742 - 0.009ms returns 0
T0BA0 000:581.750 JLINK_WriteReg(CFBP, 0x00000000)
T0BA0 000:581.757 - 0.009ms returns 0
T0BA0 000:581.765 JLINK_SetBPEx(Addr = 0x20000000, Type = 0xFFFFFFF2)
T0BA0 000:581.773 - 0.011ms returns 0x00000006
T0BA0 000:581.782 JLINK_Go()
T0BA0 000:581.797   CPU_ReadMem(4 bytes @ 0xE0001000)
T0BA0 000:583.974 - 2.210ms
T0BA0 000:584.002 JLINK_IsHalted()
T0BA0 000:584.293 - 0.302ms returns FALSE
T0BA0 000:584.313 JLINK_HasError()
T0BA0 000:588.267 JLINK_IsHalted()
T0BA0 000:588.610 - 0.352ms returns FALSE
T0BA0 000:588.627 JLINK_HasError()
T0BA0 000:590.292 JLINK_IsHalted()
T0BA0 000:590.650 - 0.365ms returns FALSE
T0BA0 000:590.665 JLINK_HasError()
T0BA0 000:592.271 JLINK_IsHalted()
T0BA0 000:592.625 - 0.360ms returns FALSE
T0BA0 000:592.640 JLINK_HasError()
T0BA0 000:596.195 JLINK_IsHalted()
T0BA0 000:598.268   CPU_ReadMem(2 bytes @ 0x20000000)
T0BA0 000:598.582 - 2.397ms returns TRUE
T0BA0 000:598.604 JLINK_ReadReg(R15 (PC))
T0BA0 000:598.618 - 0.018ms returns 0x20000000
T0BA0 000:598.630 JLINK_ClrBPEx(BPHandle = 0x00000006)
T0BA0 000:598.642 - 0.016ms returns 0x00
T0BA0 000:598.654 JLINK_ReadReg(R0)
T0BA0 000:598.664 - 0.014ms returns 0x00000000
T0BA0 000:599.415 JLINK_WriteMem(0x20000260, 0x1A0 Bytes, ...)
T0BA0 000:599.440   Data:  02 F0 30 FE 01 99 40 1A 03 28 15 D3 FF E7 02 98 ...
T0BA0 000:599.488   CPU_WriteMem(416 bytes @ 0x20000260)
T0BA0 000:601.678 - 2.271ms returns 0x1A0
T0BA0 000:601.695 JLINK_WriteMem(0x20000400, 0x260 Bytes, ...)
T0BA0 000:601.703   Data:  03 98 01 6C 40 6C 00 F0 1F 02 01 20 90 40 48 60 ...
T0BA0 000:601.720   CPU_WriteMem(608 bytes @ 0x20000400)
T0BA0 000:604.118 - 2.430ms returns 0x260
T0BA0 000:604.139 JLINK_HasError()
T0BA0 000:604.152 JLINK_WriteReg(R0, 0x08000800)
T0BA0 000:604.162 - 0.013ms returns 0
T0BA0 000:604.170 JLINK_WriteReg(R1, 0x00000400)
T0BA0 000:604.178 - 0.010ms returns 0
T0BA0 000:604.186 JLINK_WriteReg(R2, 0x20000260)
T0BA0 000:604.193 - 0.010ms returns 0
T0BA0 000:604.201 JLINK_WriteReg(R3, 0x00000000)
T0BA0 000:604.208 - 0.010ms returns 0
T0BA0 000:604.216 JLINK_WriteReg(R4, 0x00000000)
T0BA0 000:604.223 - 0.010ms returns 0
T0BA0 000:604.231 JLINK_WriteReg(R5, 0x00000000)
T0BA0 000:604.238 - 0.010ms returns 0
T0BA0 000:604.246 JLINK_WriteReg(R6, 0x00000000)
T0BA0 000:604.253 - 0.010ms returns 0
T0BA0 000:604.261 JLINK_WriteReg(R7, 0x00000000)
T0BA0 000:604.267 - 0.010ms returns 0
T0BA0 000:604.276 JLINK_WriteReg(R8, 0x00000000)
T0BA0 000:604.282 - 0.010ms returns 0
T0BA0 000:604.291 JLINK_WriteReg(R9, 0x2000024C)
T0BA0 000:604.297 - 0.010ms returns 0
T0BA0 000:604.306 JLINK_WriteReg(R10, 0x00000000)
T0BA0 000:604.312 - 0.010ms returns 0
T0BA0 000:604.320 JLINK_WriteReg(R11, 0x00000000)
T0BA0 000:604.327 - 0.010ms returns 0
T0BA0 000:604.335 JLINK_WriteReg(R12, 0x00000000)
T0BA0 000:604.342 - 0.010ms returns 0
T0BA0 000:604.350 JLINK_WriteReg(R13 (SP), 0x20001000)
T0BA0 000:604.358 - 0.010ms returns 0
T0BA0 000:604.366 JLINK_WriteReg(R14, 0x20000001)
T0BA0 000:604.373 - 0.010ms returns 0
T0BA0 000:604.381 JLINK_WriteReg(R15 (PC), 0x20000150)
T0BA0 000:604.388 - 0.010ms returns 0
T0BA0 000:604.396 JLINK_WriteReg(XPSR, 0x01000000)
T0BA0 000:604.403 - 0.009ms returns 0
T0BA0 000:604.411 JLINK_WriteReg(MSP, 0x20001000)
T0BA0 000:604.418 - 0.010ms returns 0
T0BA0 000:604.426 JLINK_WriteReg(PSP, 0x20001000)
T0BA0 000:604.432 - 0.010ms returns 0
T0BA0 000:604.440 JLINK_WriteReg(CFBP, 0x00000000)
T0BA0 000:604.447 - 0.010ms returns 0
T0BA0 000:604.456 JLINK_SetBPEx(Addr = 0x20000000, Type = 0xFFFFFFF2)
T0BA0 000:604.464 - 0.011ms returns 0x00000007
T0BA0 000:604.472 JLINK_Go()
T0BA0 000:604.486   CPU_ReadMem(4 bytes @ 0xE0001000)
T0BA0 000:607.101 - 2.636ms
T0BA0 000:607.116 JLINK_IsHalted()
T0BA0 000:607.368 - 0.259ms returns FALSE
T0BA0 000:607.384 JLINK_HasError()
T0BA0 000:613.241 JLINK_IsHalted()
T0BA0 000:613.621 - 0.389ms returns FALSE
T0BA0 000:613.638 JLINK_HasError()
T0BA0 000:615.314 JLINK_IsHalted()
T0BA0 000:615.610 - 0.305ms returns FALSE
T0BA0 000:615.631 JLINK_HasError()
T0BA0 000:618.224 JLINK_IsHalted()
T0BA0 000:620.329   CPU_ReadMem(2 bytes @ 0x20000000)
T0BA0 000:620.685 - 2.468ms returns TRUE
T0BA0 000:620.700 JLINK_ReadReg(R15 (PC))
T0BA0 000:620.711 - 0.013ms returns 0x20000000
T0BA0 000:620.720 JLINK_ClrBPEx(BPHandle = 0x00000007)
T0BA0 000:620.727 - 0.010ms returns 0x00
T0BA0 000:620.736 JLINK_ReadReg(R0)
T0BA0 000:620.743 - 0.010ms returns 0x00000000
T0BA0 000:621.254 JLINK_WriteMem(0x20000260, 0x1A0 Bytes, ...)
T0BA0 000:621.265   Data:  9D F8 0F 00 40 07 00 28 2E D5 FF E7 03 98 80 F0 ...
T0BA0 000:621.281   CPU_WriteMem(416 bytes @ 0x20000260)
T0BA0 000:623.080 - 1.833ms returns 0x1A0
T0BA0 000:623.096 JLINK_WriteMem(0x20000400, 0x260 Bytes, ...)
T0BA0 000:623.103   Data:  48 80 01 20 C8 61 07 E0 40 F6 40 71 C2 F2 00 01 ...
T0BA0 000:623.118   CPU_WriteMem(608 bytes @ 0x20000400)
T0BA0 000:625.391 - 2.303ms returns 0x260
T0BA0 000:625.408 JLINK_HasError()
T0BA0 000:625.417 JLINK_WriteReg(R0, 0x08000C00)
T0BA0 000:625.428 - 0.014ms returns 0
T0BA0 000:625.437 JLINK_WriteReg(R1, 0x00000400)
T0BA0 000:625.444 - 0.010ms returns 0
T0BA0 000:625.452 JLINK_WriteReg(R2, 0x20000260)
T0BA0 000:625.459 - 0.010ms returns 0
T0BA0 000:625.468 JLINK_WriteReg(R3, 0x00000000)
T0BA0 000:625.474 - 0.010ms returns 0
T0BA0 000:625.483 JLINK_WriteReg(R4, 0x00000000)
T0BA0 000:625.490 - 0.010ms returns 0
T0BA0 000:625.498 JLINK_WriteReg(R5, 0x00000000)
T0BA0 000:625.505 - 0.009ms returns 0
T0BA0 000:625.513 JLINK_WriteReg(R6, 0x00000000)
T0BA0 000:625.519 - 0.010ms returns 0
T0BA0 000:625.528 JLINK_WriteReg(R7, 0x00000000)
T0BA0 000:625.535 - 0.010ms returns 0
T0BA0 000:625.543 JLINK_WriteReg(R8, 0x00000000)
T0BA0 000:625.616 - 0.077ms returns 0
T0BA0 000:625.626 JLINK_WriteReg(R9, 0x2000024C)
T0BA0 000:625.633 - 0.010ms returns 0
T0BA0 000:625.641 JLINK_WriteReg(R10, 0x00000000)
T0BA0 000:625.647 - 0.009ms returns 0
T0BA0 000:625.655 JLINK_WriteReg(R11, 0x00000000)
T0BA0 000:625.662 - 0.009ms returns 0
T0BA0 000:625.670 JLINK_WriteReg(R12, 0x00000000)
T0BA0 000:625.676 - 0.009ms returns 0
T0BA0 000:625.684 JLINK_WriteReg(R13 (SP), 0x20001000)
T0BA0 000:625.692 - 0.010ms returns 0
T0BA0 000:625.700 JLINK_WriteReg(R14, 0x20000001)
T0BA0 000:625.706 - 0.009ms returns 0
T0BA0 000:625.714 JLINK_WriteReg(R15 (PC), 0x20000150)
T0BA0 000:625.721 - 0.009ms returns 0
T0BA0 000:625.729 JLINK_WriteReg(XPSR, 0x01000000)
T0BA0 000:625.735 - 0.009ms returns 0
T0BA0 000:625.743 JLINK_WriteReg(MSP, 0x20001000)
T0BA0 000:625.750 - 0.009ms returns 0
T0BA0 000:625.758 JLINK_WriteReg(PSP, 0x20001000)
T0BA0 000:625.765 - 0.009ms returns 0
T0BA0 000:625.772 JLINK_WriteReg(CFBP, 0x00000000)
T0BA0 000:625.779 - 0.009ms returns 0
T0BA0 000:625.787 JLINK_SetBPEx(Addr = 0x20000000, Type = 0xFFFFFFF2)
T0BA0 000:625.796 - 0.011ms returns 0x00000008
T0BA0 000:625.804 JLINK_Go()
T0BA0 000:625.822   CPU_ReadMem(4 bytes @ 0xE0001000)
T0BA0 000:628.125 - 2.328ms
T0BA0 000:628.140 JLINK_IsHalted()
T0BA0 000:628.478 - 0.344ms returns FALSE
T0BA0 000:628.493 JLINK_HasError()
T0BA0 000:632.067 JLINK_IsHalted()
T0BA0 000:632.365 - 0.310ms returns FALSE
T0BA0 000:632.389 JLINK_HasError()
T0BA0 000:637.061 JLINK_IsHalted()
T0BA0 000:637.446 - 0.393ms returns FALSE
T0BA0 000:637.463 JLINK_HasError()
T0BA0 000:639.144 JLINK_IsHalted()
T0BA0 000:641.177   CPU_ReadMem(2 bytes @ 0x20000000)
T0BA0 000:641.537 - 2.401ms returns TRUE
T0BA0 000:641.555 JLINK_ReadReg(R15 (PC))
T0BA0 000:641.565 - 0.013ms returns 0x20000000
T0BA0 000:641.574 JLINK_ClrBPEx(BPHandle = 0x00000008)
T0BA0 000:641.582 - 0.010ms returns 0x00
T0BA0 000:641.590 JLINK_ReadReg(R0)
T0BA0 000:641.597 - 0.010ms returns 0x00000000
T0BA0 000:642.091 JLINK_WriteMem(0x20000260, 0x1A0 Bytes, ...)
T0BA0 000:642.101   Data:  80 BD 00 00 80 B5 82 B0 01 90 00 91 01 99 00 9A ...
T0BA0 000:642.118   CPU_WriteMem(416 bytes @ 0x20000260)
T0BA0 000:644.125 - 2.041ms returns 0x1A0
T0BA0 000:644.140 JLINK_WriteMem(0x20000400, 0x260 Bytes, ...)
T0BA0 000:644.148   Data:  77 FC 02 B0 80 BD 00 00 80 B5 82 B0 01 90 00 91 ...
T0BA0 000:644.163   CPU_WriteMem(608 bytes @ 0x20000400)
T0BA0 000:646.734 - 2.601ms returns 0x260
T0BA0 000:646.750 JLINK_HasError()
T0BA0 000:646.759 JLINK_WriteReg(R0, 0x08001000)
T0BA0 000:646.769 - 0.013ms returns 0
T0BA0 000:646.778 JLINK_WriteReg(R1, 0x00000400)
T0BA0 000:646.785 - 0.010ms returns 0
T0BA0 000:646.793 JLINK_WriteReg(R2, 0x20000260)
T0BA0 000:646.800 - 0.010ms returns 0
T0BA0 000:646.808 JLINK_WriteReg(R3, 0x00000000)
T0BA0 000:646.815 - 0.010ms returns 0
T0BA0 000:646.823 JLINK_WriteReg(R4, 0x00000000)
T0BA0 000:646.830 - 0.010ms returns 0
T0BA0 000:646.839 JLINK_WriteReg(R5, 0x00000000)
T0BA0 000:646.845 - 0.010ms returns 0
T0BA0 000:646.854 JLINK_WriteReg(R6, 0x00000000)
T0BA0 000:646.860 - 0.010ms returns 0
T0BA0 000:646.869 JLINK_WriteReg(R7, 0x00000000)
T0BA0 000:646.875 - 0.009ms returns 0
T0BA0 000:646.883 JLINK_WriteReg(R8, 0x00000000)
T0BA0 000:646.890 - 0.010ms returns 0
T0BA0 000:646.898 JLINK_WriteReg(R9, 0x2000024C)
T0BA0 000:646.905 - 0.010ms returns 0
T0BA0 000:646.913 JLINK_WriteReg(R10, 0x00000000)
T0BA0 000:646.920 - 0.010ms returns 0
T0BA0 000:646.928 JLINK_WriteReg(R11, 0x00000000)
T0BA0 000:646.935 - 0.010ms returns 0
T0BA0 000:646.943 JLINK_WriteReg(R12, 0x00000000)
T0BA0 000:646.950 - 0.010ms returns 0
T0BA0 000:646.958 JLINK_WriteReg(R13 (SP), 0x20001000)
T0BA0 000:646.965 - 0.010ms returns 0
T0BA0 000:646.974 JLINK_WriteReg(R14, 0x20000001)
T0BA0 000:646.981 - 0.010ms returns 0
T0BA0 000:646.989 JLINK_WriteReg(R15 (PC), 0x20000150)
T0BA0 000:646.996 - 0.010ms returns 0
T0BA0 000:647.004 JLINK_WriteReg(XPSR, 0x01000000)
T0BA0 000:647.010 - 0.014ms returns 0
T0BA0 000:647.026 JLINK_WriteReg(MSP, 0x20001000)
T0BA0 000:647.033 - 0.010ms returns 0
T0BA0 000:647.041 JLINK_WriteReg(PSP, 0x20001000)
T0BA0 000:647.050 - 0.012ms returns 0
T0BA0 000:647.060 JLINK_WriteReg(CFBP, 0x00000000)
T0BA0 000:647.077 - 0.021ms returns 0
T0BA0 000:647.090 JLINK_SetBPEx(Addr = 0x20000000, Type = 0xFFFFFFF2)
T0BA0 000:647.101 - 0.015ms returns 0x00000009
T0BA0 000:647.112 JLINK_Go()
T0BA0 000:647.138   CPU_ReadMem(4 bytes @ 0xE0001000)
T0BA0 000:649.240 - 2.142ms
T0BA0 000:649.264 JLINK_IsHalted()
T0BA0 000:649.611 - 0.356ms returns FALSE
T0BA0 000:649.628 JLINK_HasError()
T0BA0 000:653.129 JLINK_IsHalted()
T0BA0 000:653.504 - 0.383ms returns FALSE
T0BA0 000:653.520 JLINK_HasError()
T0BA0 000:655.125 JLINK_IsHalted()
T0BA0 000:655.399 - 0.281ms returns FALSE
T0BA0 000:655.414 JLINK_HasError()
T0BA0 000:658.030 JLINK_IsHalted()
T0BA0 000:658.454 - 0.432ms returns FALSE
T0BA0 000:658.470 JLINK_HasError()
T0BA0 000:660.110 JLINK_IsHalted()
T0BA0 000:660.459 - 0.355ms returns FALSE
T0BA0 000:660.473 JLINK_HasError()
T0BA0 000:662.093 JLINK_IsHalted()
T0BA0 000:664.114   CPU_ReadMem(2 bytes @ 0x20000000)
T0BA0 000:664.467 - 2.381ms returns TRUE
T0BA0 000:664.482 JLINK_ReadReg(R15 (PC))
T0BA0 000:664.495 - 0.016ms returns 0x20000000
T0BA0 000:664.504 JLINK_ClrBPEx(BPHandle = 0x00000009)
T0BA0 000:664.512 - 0.010ms returns 0x00
T0BA0 000:664.520 JLINK_ReadReg(R0)
T0BA0 000:664.527 - 0.010ms returns 0x00000000
T0BA0 000:665.024 JLINK_WriteMem(0x20000260, 0x1A0 Bytes, ...)
T0BA0 000:665.035   Data:  C0 F2 02 00 00 22 FF F7 43 FB 02 B0 80 BD 00 00 ...
T0BA0 000:665.051   CPU_WriteMem(416 bytes @ 0x20000260)
T0BA0 000:667.021 - 2.017ms returns 0x1A0
T0BA0 000:667.054 JLINK_WriteMem(0x20000400, 0x260 Bytes, ...)
T0BA0 000:667.062   Data:  4F F2 15 20 C0 F2 02 00 00 22 FF F7 71 FA 02 B0 ...
T0BA0 000:667.084   CPU_WriteMem(608 bytes @ 0x20000400)
T0BA0 000:669.646 - 2.599ms returns 0x260
T0BA0 000:669.664 JLINK_HasError()
T0BA0 000:669.674 JLINK_WriteReg(R0, 0x08001400)
T0BA0 000:669.684 - 0.013ms returns 0
T0BA0 000:669.759 JLINK_WriteReg(R1, 0x00000400)
T0BA0 000:669.773 - 0.017ms returns 0
T0BA0 000:669.782 JLINK_WriteReg(R2, 0x20000260)
T0BA0 000:669.790 - 0.010ms returns 0
T0BA0 000:669.798 JLINK_WriteReg(R3, 0x00000000)
T0BA0 000:669.805 - 0.010ms returns 0
T0BA0 000:669.813 JLINK_WriteReg(R4, 0x00000000)
T0BA0 000:669.820 - 0.010ms returns 0
T0BA0 000:669.828 JLINK_WriteReg(R5, 0x00000000)
T0BA0 000:669.835 - 0.010ms returns 0
T0BA0 000:669.843 JLINK_WriteReg(R6, 0x00000000)
T0BA0 000:669.850 - 0.010ms returns 0
T0BA0 000:669.858 JLINK_WriteReg(R7, 0x00000000)
T0BA0 000:669.865 - 0.010ms returns 0
T0BA0 000:669.873 JLINK_WriteReg(R8, 0x00000000)
T0BA0 000:669.880 - 0.010ms returns 0
T0BA0 000:669.888 JLINK_WriteReg(R9, 0x2000024C)
T0BA0 000:669.895 - 0.010ms returns 0
T0BA0 000:669.903 JLINK_WriteReg(R10, 0x00000000)
T0BA0 000:669.910 - 0.010ms returns 0
T0BA0 000:669.918 JLINK_WriteReg(R11, 0x00000000)
T0BA0 000:669.925 - 0.010ms returns 0
T0BA0 000:669.933 JLINK_WriteReg(R12, 0x00000000)
T0BA0 000:669.940 - 0.010ms returns 0
T0BA0 000:669.948 JLINK_WriteReg(R13 (SP), 0x20001000)
T0BA0 000:669.955 - 0.010ms returns 0
T0BA0 000:669.963 JLINK_WriteReg(R14, 0x20000001)
T0BA0 000:669.970 - 0.010ms returns 0
T0BA0 000:669.980 JLINK_WriteReg(R15 (PC), 0x20000150)
T0BA0 000:669.988 - 0.010ms returns 0
T0BA0 000:669.996 JLINK_WriteReg(XPSR, 0x01000000)
T0BA0 000:670.003 - 0.010ms returns 0
T0BA0 000:670.011 JLINK_WriteReg(MSP, 0x20001000)
T0BA0 000:670.018 - 0.010ms returns 0
T0BA0 000:670.026 JLINK_WriteReg(PSP, 0x20001000)
T0BA0 000:670.033 - 0.010ms returns 0
T0BA0 000:670.041 JLINK_WriteReg(CFBP, 0x00000000)
T0BA0 000:670.048 - 0.010ms returns 0
T0BA0 000:670.056 JLINK_SetBPEx(Addr = 0x20000000, Type = 0xFFFFFFF2)
T0BA0 000:670.066 - 0.013ms returns 0x0000000A
T0BA0 000:670.075 JLINK_Go()
T0BA0 000:670.089   CPU_ReadMem(4 bytes @ 0xE0001000)
T0BA0 000:672.552 - 2.485ms
T0BA0 000:672.567 JLINK_IsHalted()
T0BA0 000:672.921 - 0.363ms returns FALSE
T0BA0 000:672.939 JLINK_HasError()
T0BA0 000:676.976 JLINK_IsHalted()
T0BA0 000:677.357 - 0.389ms returns FALSE
T0BA0 000:677.374 JLINK_HasError()
T0BA0 000:679.065 JLINK_IsHalted()
T0BA0 000:679.356 - 0.302ms returns FALSE
T0BA0 000:679.380 JLINK_HasError()
T0BA0 000:685.052 JLINK_IsHalted()
T0BA0 000:687.185   CPU_ReadMem(2 bytes @ 0x20000000)
T0BA0 000:687.504 - 2.463ms returns TRUE
T0BA0 000:687.524 JLINK_ReadReg(R15 (PC))
T0BA0 000:687.537 - 0.015ms returns 0x20000000
T0BA0 000:687.546 JLINK_ClrBPEx(BPHandle = 0x0000000A)
T0BA0 000:687.553 - 0.011ms returns 0x00
T0BA0 000:687.562 JLINK_ReadReg(R0)
T0BA0 000:687.569 - 0.010ms returns 0x00000000
T0BA0 000:688.091 JLINK_WriteMem(0x20000260, 0x1A0 Bytes, ...)
T0BA0 000:688.103   Data:  B0 FA 80 F0 40 09 0B 90 FF E7 0B 98 C1 07 40 F2 ...
T0BA0 000:688.122   CPU_WriteMem(416 bytes @ 0x20000260)
T0BA0 000:689.937 - 1.854ms returns 0x1A0
T0BA0 000:689.953 JLINK_WriteMem(0x20000400, 0x260 Bytes, ...)
T0BA0 000:689.961   Data:  05 F0 04 F9 01 46 01 98 08 43 02 90 40 F2 00 60 ...
T0BA0 000:689.976   CPU_WriteMem(608 bytes @ 0x20000400)
T0BA0 000:692.496 - 2.550ms returns 0x260
T0BA0 000:692.512 JLINK_HasError()
T0BA0 000:692.521 JLINK_WriteReg(R0, 0x08001800)
T0BA0 000:692.530 - 0.013ms returns 0
T0BA0 000:692.539 JLINK_WriteReg(R1, 0x00000400)
T0BA0 000:692.546 - 0.010ms returns 0
T0BA0 000:692.554 JLINK_WriteReg(R2, 0x20000260)
T0BA0 000:692.561 - 0.010ms returns 0
T0BA0 000:692.569 JLINK_WriteReg(R3, 0x00000000)
T0BA0 000:692.576 - 0.010ms returns 0
T0BA0 000:692.584 JLINK_WriteReg(R4, 0x00000000)
T0BA0 000:692.591 - 0.009ms returns 0
T0BA0 000:692.599 JLINK_WriteReg(R5, 0x00000000)
T0BA0 000:692.606 - 0.010ms returns 0
T0BA0 000:692.614 JLINK_WriteReg(R6, 0x00000000)
T0BA0 000:692.621 - 0.009ms returns 0
T0BA0 000:692.629 JLINK_WriteReg(R7, 0x00000000)
T0BA0 000:692.636 - 0.010ms returns 0
T0BA0 000:692.644 JLINK_WriteReg(R8, 0x00000000)
T0BA0 000:692.651 - 0.010ms returns 0
T0BA0 000:692.659 JLINK_WriteReg(R9, 0x2000024C)
T0BA0 000:692.666 - 0.010ms returns 0
T0BA0 000:692.674 JLINK_WriteReg(R10, 0x00000000)
T0BA0 000:692.681 - 0.010ms returns 0
T0BA0 000:692.689 JLINK_WriteReg(R11, 0x00000000)
T0BA0 000:692.696 - 0.010ms returns 0
T0BA0 000:692.704 JLINK_WriteReg(R12, 0x00000000)
T0BA0 000:692.711 - 0.010ms returns 0
T0BA0 000:692.719 JLINK_WriteReg(R13 (SP), 0x20001000)
T0BA0 000:692.726 - 0.010ms returns 0
T0BA0 000:692.734 JLINK_WriteReg(R14, 0x20000001)
T0BA0 000:692.741 - 0.009ms returns 0
T0BA0 000:692.749 JLINK_WriteReg(R15 (PC), 0x20000150)
T0BA0 000:692.756 - 0.010ms returns 0
T0BA0 000:692.764 JLINK_WriteReg(XPSR, 0x01000000)
T0BA0 000:692.771 - 0.009ms returns 0
T0BA0 000:692.779 JLINK_WriteReg(MSP, 0x20001000)
T0BA0 000:692.785 - 0.010ms returns 0
T0BA0 000:692.793 JLINK_WriteReg(PSP, 0x20001000)
T0BA0 000:692.800 - 0.009ms returns 0
T0BA0 000:692.808 JLINK_WriteReg(CFBP, 0x00000000)
T0BA0 000:692.815 - 0.010ms returns 0
T0BA0 000:692.823 JLINK_SetBPEx(Addr = 0x20000000, Type = 0xFFFFFFF2)
T0BA0 000:692.831 - 0.011ms returns 0x0000000B
T0BA0 000:692.840 JLINK_Go()
T0BA0 000:692.853   CPU_ReadMem(4 bytes @ 0xE0001000)
T0BA0 000:695.318 - 2.488ms
T0BA0 000:695.343 JLINK_IsHalted()
T0BA0 000:695.589 - 0.260ms returns FALSE
T0BA0 000:695.619 JLINK_HasError()
T0BA0 000:701.977 JLINK_IsHalted()
T0BA0 000:702.359 - 0.390ms returns FALSE
T0BA0 000:702.376 JLINK_HasError()
T0BA0 000:703.968 JLINK_IsHalted()
T0BA0 000:704.333 - 0.372ms returns FALSE
T0BA0 000:704.348 JLINK_HasError()
T0BA0 000:706.981 JLINK_IsHalted()
T0BA0 000:709.039   CPU_ReadMem(2 bytes @ 0x20000000)
T0BA0 000:709.407 - 2.433ms returns TRUE
T0BA0 000:709.422 JLINK_ReadReg(R15 (PC))
T0BA0 000:709.433 - 0.013ms returns 0x20000000
T0BA0 000:709.441 JLINK_ClrBPEx(BPHandle = 0x0000000B)
T0BA0 000:709.449 - 0.011ms returns 0x00
T0BA0 000:709.528 JLINK_ReadReg(R0)
T0BA0 000:709.535 - 0.010ms returns 0x00000000
T0BA0 000:710.027 JLINK_WriteMem(0x20000260, 0x1A0 Bytes, ...)
T0BA0 000:710.041   Data:  84 60 19 90 18 E0 24 98 00 68 01 21 04 F0 A6 FF ...
T0BA0 000:710.061   CPU_WriteMem(416 bytes @ 0x20000260)
T0BA0 000:711.796 - 1.785ms returns 0x1A0
T0BA0 000:711.826 JLINK_WriteMem(0x20000400, 0x260 Bytes, ...)
T0BA0 000:711.840   Data:  23 98 00 68 40 03 30 B9 FF E7 23 98 00 68 C0 F3 ...
T0BA0 000:711.871   CPU_WriteMem(608 bytes @ 0x20000400)
T0BA0 000:714.346 - 2.532ms returns 0x260
T0BA0 000:714.369 JLINK_HasError()
T0BA0 000:714.379 JLINK_WriteReg(R0, 0x08001C00)
T0BA0 000:714.391 - 0.015ms returns 0
T0BA0 000:714.399 JLINK_WriteReg(R1, 0x00000400)
T0BA0 000:714.406 - 0.010ms returns 0
T0BA0 000:714.415 JLINK_WriteReg(R2, 0x20000260)
T0BA0 000:714.422 - 0.010ms returns 0
T0BA0 000:714.430 JLINK_WriteReg(R3, 0x00000000)
T0BA0 000:714.437 - 0.010ms returns 0
T0BA0 000:714.445 JLINK_WriteReg(R4, 0x00000000)
T0BA0 000:714.452 - 0.010ms returns 0
T0BA0 000:714.460 JLINK_WriteReg(R5, 0x00000000)
T0BA0 000:714.467 - 0.010ms returns 0
T0BA0 000:714.475 JLINK_WriteReg(R6, 0x00000000)
T0BA0 000:714.482 - 0.010ms returns 0
T0BA0 000:714.490 JLINK_WriteReg(R7, 0x00000000)
T0BA0 000:714.496 - 0.010ms returns 0
T0BA0 000:714.505 JLINK_WriteReg(R8, 0x00000000)
T0BA0 000:714.512 - 0.010ms returns 0
T0BA0 000:714.520 JLINK_WriteReg(R9, 0x2000024C)
T0BA0 000:714.526 - 0.009ms returns 0
T0BA0 000:714.535 JLINK_WriteReg(R10, 0x00000000)
T0BA0 000:714.541 - 0.010ms returns 0
T0BA0 000:714.549 JLINK_WriteReg(R11, 0x00000000)
T0BA0 000:714.556 - 0.009ms returns 0
T0BA0 000:714.564 JLINK_WriteReg(R12, 0x00000000)
T0BA0 000:714.571 - 0.010ms returns 0
T0BA0 000:714.579 JLINK_WriteReg(R13 (SP), 0x20001000)
T0BA0 000:714.587 - 0.010ms returns 0
T0BA0 000:714.595 JLINK_WriteReg(R14, 0x20000001)
T0BA0 000:714.601 - 0.009ms returns 0
T0BA0 000:714.609 JLINK_WriteReg(R15 (PC), 0x20000150)
T0BA0 000:714.616 - 0.010ms returns 0
T0BA0 000:714.624 JLINK_WriteReg(XPSR, 0x01000000)
T0BA0 000:714.631 - 0.010ms returns 0
T0BA0 000:714.639 JLINK_WriteReg(MSP, 0x20001000)
T0BA0 000:714.646 - 0.010ms returns 0
T0BA0 000:714.654 JLINK_WriteReg(PSP, 0x20001000)
T0BA0 000:714.661 - 0.009ms returns 0
T0BA0 000:714.669 JLINK_WriteReg(CFBP, 0x00000000)
T0BA0 000:714.675 - 0.009ms returns 0
T0BA0 000:714.684 JLINK_SetBPEx(Addr = 0x20000000, Type = 0xFFFFFFF2)
T0BA0 000:714.692 - 0.011ms returns 0x0000000C
T0BA0 000:714.701 JLINK_Go()
T0BA0 000:714.715   CPU_ReadMem(4 bytes @ 0xE0001000)
T0BA0 000:716.993 - 2.307ms
T0BA0 000:717.017 JLINK_IsHalted()
T0BA0 000:717.350 - 0.339ms returns FALSE
T0BA0 000:717.364 JLINK_HasError()
T0BA0 000:721.913 JLINK_IsHalted()
T0BA0 000:722.309 - 0.404ms returns FALSE
T0BA0 000:722.325 JLINK_HasError()
T0BA0 000:723.938 JLINK_IsHalted()
T0BA0 000:724.300 - 0.369ms returns FALSE
T0BA0 000:724.315 JLINK_HasError()
T0BA0 000:725.945 JLINK_IsHalted()
T0BA0 000:726.242 - 0.305ms returns FALSE
T0BA0 000:726.258 JLINK_HasError()
T0BA0 000:727.813 JLINK_IsHalted()
T0BA0 000:728.164 - 0.358ms returns FALSE
T0BA0 000:728.179 JLINK_HasError()
T0BA0 000:731.833 JLINK_IsHalted()
T0BA0 000:733.932   CPU_ReadMem(2 bytes @ 0x20000000)
T0BA0 000:734.307 - 2.481ms returns TRUE
T0BA0 000:734.323 JLINK_ReadReg(R15 (PC))
T0BA0 000:734.333 - 0.013ms returns 0x20000000
T0BA0 000:734.342 JLINK_ClrBPEx(BPHandle = 0x0000000C)
T0BA0 000:734.350 - 0.010ms returns 0x00
T0BA0 000:734.358 JLINK_ReadReg(R0)
T0BA0 000:734.365 - 0.010ms returns 0x00000000
T0BA0 000:734.865 JLINK_WriteMem(0x20000260, 0x1A0 Bytes, ...)
T0BA0 000:734.876   Data:  8D F8 D7 00 FF E7 9D F8 D7 00 06 90 FF E7 07 98 ...
T0BA0 000:734.902   CPU_WriteMem(416 bytes @ 0x20000260)
T0BA0 000:736.684 - 1.834ms returns 0x1A0
T0BA0 000:736.710 JLINK_WriteMem(0x20000400, 0x260 Bytes, ...)
T0BA0 000:736.717   Data:  40 01 4F F0 0C 00 00 EB 81 00 1F 90 FF E7 1F 98 ...
T0BA0 000:736.739   CPU_WriteMem(608 bytes @ 0x20000400)
T0BA0 000:739.149 - 2.447ms returns 0x260
T0BA0 000:739.166 JLINK_HasError()
T0BA0 000:739.176 JLINK_WriteReg(R0, 0x08002000)
T0BA0 000:739.186 - 0.013ms returns 0
T0BA0 000:739.198 JLINK_WriteReg(R1, 0x00000400)
T0BA0 000:739.209 - 0.013ms returns 0
T0BA0 000:739.217 JLINK_WriteReg(R2, 0x20000260)
T0BA0 000:739.224 - 0.010ms returns 0
T0BA0 000:739.232 JLINK_WriteReg(R3, 0x00000000)
T0BA0 000:739.239 - 0.010ms returns 0
T0BA0 000:739.247 JLINK_WriteReg(R4, 0x00000000)
T0BA0 000:739.254 - 0.010ms returns 0
T0BA0 000:739.262 JLINK_WriteReg(R5, 0x00000000)
T0BA0 000:739.269 - 0.010ms returns 0
T0BA0 000:739.277 JLINK_WriteReg(R6, 0x00000000)
T0BA0 000:739.284 - 0.010ms returns 0
T0BA0 000:739.292 JLINK_WriteReg(R7, 0x00000000)
T0BA0 000:739.299 - 0.010ms returns 0
T0BA0 000:739.307 JLINK_WriteReg(R8, 0x00000000)
T0BA0 000:739.314 - 0.010ms returns 0
T0BA0 000:739.322 JLINK_WriteReg(R9, 0x2000024C)
T0BA0 000:739.329 - 0.010ms returns 0
T0BA0 000:739.337 JLINK_WriteReg(R10, 0x00000000)
T0BA0 000:739.344 - 0.010ms returns 0
T0BA0 000:739.352 JLINK_WriteReg(R11, 0x00000000)
T0BA0 000:739.359 - 0.010ms returns 0
T0BA0 000:739.367 JLINK_WriteReg(R12, 0x00000000)
T0BA0 000:739.374 - 0.009ms returns 0
T0BA0 000:739.382 JLINK_WriteReg(R13 (SP), 0x20001000)
T0BA0 000:739.389 - 0.010ms returns 0
T0BA0 000:739.397 JLINK_WriteReg(R14, 0x20000001)
T0BA0 000:739.404 - 0.010ms returns 0
T0BA0 000:739.412 JLINK_WriteReg(R15 (PC), 0x20000150)
T0BA0 000:739.419 - 0.010ms returns 0
T0BA0 000:739.427 JLINK_WriteReg(XPSR, 0x01000000)
T0BA0 000:739.434 - 0.010ms returns 0
T0BA0 000:739.442 JLINK_WriteReg(MSP, 0x20001000)
T0BA0 000:739.449 - 0.010ms returns 0
T0BA0 000:739.457 JLINK_WriteReg(PSP, 0x20001000)
T0BA0 000:739.464 - 0.010ms returns 0
T0BA0 000:739.472 JLINK_WriteReg(CFBP, 0x00000000)
T0BA0 000:739.479 - 0.010ms returns 0
T0BA0 000:739.487 JLINK_SetBPEx(Addr = 0x20000000, Type = 0xFFFFFFF2)
T0BA0 000:739.495 - 0.011ms returns 0x0000000D
T0BA0 000:739.503 JLINK_Go()
T0BA0 000:739.517   CPU_ReadMem(4 bytes @ 0xE0001000)
